name,type,start_time,duration,"protected_id","data","index","checksum"
"LIN","header_break",0.009177542,0.000775,,,,
"LIN","header_sync",0.010011,0.000475,,,,
"LIN","header_pid",0.010532,0.000475,0x0000000000000010,,,
"LIN","data",0.011165333,0.000475,,0x000000000000005E,0x0000000000000000,
"LIN","data",0.011686,0.000475,,0x0000000000000021,0x0000000000000001,
"LIN","data",0.012206625,0.000475,,0x00000000000000FE,0x0000000000000002,
"LIN","data",0.01272725,0.000475,,0x00000000000000C0,0x0000000000000003,
"LIN","data",0.013247792,0.000475,,0x0000000000000099,0x0000000000000004,
"LIN","data",0.013768375,0.000475,,0x0000000000000099,0x0000000000000005,
"LIN","data_or_checksum",0.014289,0.000475,,0x000000000000003D,0x0000000000000006,0x000000000000003D
"LIN","header_break",0.02918175,0.000726125,,,,
"LIN","header_sync",0.03001525,0.000475,,,,
"LIN","header_pid",0.030536167,0.000475,0x0000000000000011,,,
"LIN","data",0.031057125,0.000475,,0x0000000000000000,0x0000000000000000,
"LIN","data",0.031578083,0.000475,,0x0000000000000073,0x0000000000000001,
"LIN","data",0.032099,0.000475,,0x0000000000000000,0x0000000000000002,
"LIN","data",0.032619958,0.000475,,0x00000000000000F8,0x0000000000000003,
"LIN","data_or_checksum",0.033140917,0.000475,,0x0000000000000082,0x0000000000000004,0x0000000000000082
"LIN","header_break",0.039183875,0.000726167,,,,
"LIN","header_sync",0.040017375,0.000475,,,,
"LIN","header_pid",0.040538292,0.000475,0x0000000000000004,,,
"LIN","data",0.04105925,0.000475,,0x0000000000000043,0x0000000000000000,
"LIN","data",0.041580208,0.000475,,0x00000000000000FE,0x0000000000000001,
"LIN","data_or_checksum",0.042101167,0.000475,,0x00000000000000F8,0x0000000000000002,0x00000000000000F8
"LIN","header_break",0.044184917,0.000726208,,,,
"LIN","header_sync",0.045018458,0.000475,,,,
"LIN","header_pid",0.045539375,0.000475,0x0000000000000012,,,
"LIN","data",0.046104375,0.000475,,0x0000000000000003,0x0000000000000000,
"LIN","data",0.046729542,0.000475,,0x0000000000000010,0x0000000000000001,
"LIN","data",0.047355833,0.000475,,0x0000000000000011,0x0000000000000002,
"LIN","data",0.047981083,0.000475,,0x0000000000000011,0x0000000000000003,
"LIN","data",0.048606292,0.000475,,0x00000000000000A4,0x0000000000000004,
"LIN","data",0.0492315,0.000475,,0x0000000000000000,0x0000000000000005,
"LIN","data_or_checksum",0.049856792,0.000475,,0x0000000000000093,0x0000000000000006,0x0000000000000093
"LIN","header_break",0.059188125,0.000726208,,,,
"LIN","header_sync",0.060021625,0.000475,,,,
"LIN","header_pid",0.060542583,0.000475,0x0000000000000025,,,
"LIN","data",0.061216375,0.000475,,0x000000000000005E,0x0000000000000000,
"LIN","data",0.061845833,0.000475,,0x0000000000000055,0x0000000000000001,
"LIN","data",0.062422833,0.000475,,0x00000000000000F0,0x0000000000000002,
"LIN","data",0.06305225,0.000475,,0x0000000000000011,0x0000000000000003,
"LIN","data",0.063629375,0.000475,,0x0000000000000011,0x0000000000000004,
"LIN","data",0.064206375,0.000475,,0x0000000000000011,0x0000000000000005,
"LIN","data",0.064835833,0.000475,,0x00000000000000D1,0x0000000000000006,
"LIN","data",0.065412708,0.000475,,0x00000000000000FF,0x0000000000000007,
"LIN","checksum",0.066042125,0.000475,,,,0x0000000000000031
"LIN","header_break",0.099196625,0.000775,,,,
"LIN","header_sync",0.100030125,0.000475,,,,
"LIN","header_pid",0.100551042,0.000475,0x0000000000000001,,,
"LIN","data",0.101072,0.000475,,0x000000000000005E,0x0000000000000000,
"LIN","data",0.101592958,0.000475,,0x0000000000000001,0x0000000000000001,
"LIN","data_or_checksum",0.102113875,0.000475,,0x00000000000000DE,0x0000000000000002,0x00000000000000DE
"LIN","header_break",0.10919875,0.000726167,,,,
"LIN","header_sync",0.11003225,0.000475,,,,
"LIN","header_pid",0.110553167,0.000475,0x0000000000000010,,,
"LIN","data",0.111186625,0.000475,,0x000000000000005E,0x0000000000000000,
"LIN","data",0.111707083,0.000475,,0x0000000000000021,0x0000000000000001,
"LIN","data",0.112227667,0.000475,,0x00000000000000FE,0x0000000000000002,
"LIN","data",0.112748208,0.000475,,0x00000000000000C0,0x0000000000000003,
"LIN","data",0.113268792,0.000475,,0x0000000000000099,0x0000000000000004,
"LIN","data",0.113789375,0.000475,,0x0000000000000099,0x0000000000000005,
"LIN","data_or_checksum",0.114310042,0.000475,,0x000000000000003D,0x0000000000000006,0x000000000000003D
"LIN","header_break",0.129203042,0.000726125,,,,
"LIN","header_sync",0.1300365,0.000475,,,,
"LIN","header_pid",0.130557458,0.000475,0x0000000000000011,,,
"LIN","data",0.131078375,0.000475,,0x0000000000000000,0x0000000000000000,
"LIN","data",0.131599333,0.000475,,0x000000000000006B,0x0000000000000001,
"LIN","data",0.13212025,0.000475,,0x0000000000000000,0x0000000000000002,
"LIN","data",0.132641208,0.000475,,0x00000000000000F8,0x0000000000000003,
"LIN","data_or_checksum",0.133162167,0.000475,,0x000000000000008A,0x0000000000000004,0x000000000000008A
"LIN","header_break",0.144154125,0.000726167,,,,
"LIN","header_sync",0.144987583,0.000475,,,,
"LIN","header_pid",0.145508542,0.000475,0x0000000000000012,,,
"LIN","data",0.146056917,0.000475,,0x0000000000000002,0x0000000000000000,
"LIN","data",0.146682083,0.000475,,0x0000000000000010,0x0000000000000001,
"LIN","data",0.147307292,0.000475,,0x0000000000000011,0x0000000000000002,
"LIN","data",0.147932583,0.000475,,0x0000000000000011,0x0000000000000003,
"LIN","data",0.148557792,0.000475,,0x00000000000000A4,0x0000000000000004,
"LIN","data",0.149183042,0.000475,,0x0000000000000000,0x0000000000000005,
"LIN","data_or_checksum",0.149808292,0.000475,,0x0000000000000094,0x0000000000000006,0x0000000000000094
"LIN","header_break",0.199217917,0.000726125,,,,
"LIN","header_sync",0.200051375,0.000475,,,,
"LIN","header_pid",0.200572333,0.000475,0x0000000000000001,,,
"LIN","data",0.20109325,0.000475,,0x000000000000005E,0x0000000000000000,
"LIN","data",0.201614208,0.000475,,0x0000000000000001,0x0000000000000001,
"LIN","data_or_checksum",0.202135125,0.000475,,0x00000000000000DE,0x0000000000000002,0x00000000000000DE
"LIN","header_break",0.20922,0.000726167,,,,
"LIN","header_sync",0.2100535,0.000475,,,,
"LIN","header_pid",0.210574417,0.000475,0x0000000000000010,,,
"LIN","data",0.211207875,0.000475,,0x000000000000005E,0x0000000000000000,
"LIN","data",0.2117285,0.000475,,0x0000000000000021,0x0000000000000001,
"LIN","data",0.212249083,0.000475,,0x00000000000000FE,0x0000000000000002,
"LIN","data",0.21276975,0.000475,,0x00000000000000C0,0x0000000000000003,
"LIN","data",0.213290292,0.000475,,0x0000000000000099,0x0000000000000004,
"LIN","data",0.213810833,0.000475,,0x0000000000000099,0x0000000000000005,
"LIN","data_or_checksum",0.2143315,0.000475,,0x000000000000003D,0x0000000000000006,0x000000000000003D
"LIN","header_break",0.229224292,0.000726167,,,,
"LIN","header_sync",0.23005775,0.000475,,,,
"LIN","header_pid",0.230578708,0.000475,0x0000000000000011,,,
"LIN","data",0.231099625,0.000475,,0x0000000000000000,0x0000000000000000,
"LIN","data",0.231620583,0.000475,,0x000000000000006E,0x0000000000000001,
"LIN","data",0.232141542,0.000475,,0x0000000000000000,0x0000000000000002,
"LIN","data",0.232662458,0.000475,,0x00000000000000F8,0x0000000000000003,
"LIN","data_or_checksum",0.233183417,0.000475,,0x0000000000000087,0x0000000000000004,0x0000000000000087
"LIN","header_break",0.239226375,0.000726208,,,,
"LIN","header_sync",0.240059875,0.000475,,,,
"LIN","header_pid",0.240580833,0.000475,0x0000000000000004,,,
"LIN","data",0.24110175,0.000475,,0x0000000000000043,0x0000000000000000,
"LIN","data",0.241622708,0.000475,,0x00000000000000FE,0x0000000000000001,
"LIN","data_or_checksum",0.242143667,0.000475,,0x00000000000000F8,0x0000000000000002,0x00000000000000F8
"LIN","header_break",0.244227458,0.000726125,,,,
"LIN","header_sync",0.245060958,0.000475,,,,
"LIN","header_pid",0.245581875,0.000475,0x0000000000000012,,,
"LIN","data",0.246111875,0.000475,,0x0000000000000002,0x0000000000000000,
"LIN","data",0.246737042,0.000475,,0x0000000000000010,0x0000000000000001,
"LIN","data",0.247363333,0.000475,,0x0000000000000011,0x0000000000000002,
"LIN","data",0.247988583,0.000475,,0x0000000000000011,0x0000000000000003,
"LIN","data",0.248613833,0.000475,,0x00000000000000A4,0x0000000000000004,
"LIN","data",0.249239083,0.000475,,0x0000000000000000,0x0000000000000005,
"LIN","data_or_checksum",0.249864292,0.000475,,0x0000000000000094,0x0000000000000006,0x0000000000000094
"LIN","header_break",0.259230667,0.000726125,,,,
"LIN","header_sync",0.260064125,0.000475,,,,
"LIN","header_pid",0.260585042,0.000475,0x0000000000000025,,,
"LIN","data",0.26122425,0.000475,,0x000000000000005E,0x0000000000000000,
"LIN","data",0.261801125,0.000475,,0x0000000000000055,0x0000000000000001,
"LIN","data",0.262378125,0.000475,,0x00000000000000F0,0x0000000000000002,
"LIN","data",0.26295525,0.000475,,0x0000000000000011,0x0000000000000003,
"LIN","data",0.26353225,0.000475,,0x0000000000000011,0x0000000000000004,
"LIN","data",0.264161792,0.000475,,0x0000000000000011,0x0000000000000005,
"LIN","data",0.264738708,0.000475,,0x00000000000000D1,0x0000000000000006,
"LIN","data",0.265315708,0.000475,,0x00000000000000FF,0x0000000000000007,
"LIN","checksum",0.265945292,0.000475,,,,0x0000000000000031
"LIN","header_break",0.299239167,0.000775,,,,
"LIN","header_sync",0.300072625,0.000475,,,,
"LIN","header_pid",0.300593583,0.000475,0x0000000000000001,,,
"LIN","data",0.3011145,0.000475,,0x000000000000005E,0x0000000000000000,
"LIN","data",0.301635458,0.000475,,0x0000000000000001,0x0000000000000001,
"LIN","data_or_checksum",0.302156417,0.000475,,0x00000000000000DE,0x0000000000000002,0x00000000000000DE
"LIN","header_break",0.30924125,0.000726208,,,,
"LIN","header_sync",0.31007475,0.000475,,,,
"LIN","header_pid",0.310595708,0.000475,0x0000000000000010,,,
"LIN","data",0.31122925,0.000475,,0x000000000000005E,0x0000000000000000,
"LIN","data",0.311749875,0.000475,,0x0000000000000021,0x0000000000000001,
"LIN","data",0.312270625,0.000475,,0x00000000000000FE,0x0000000000000002,
"LIN","data",0.312791333,0.000475,,0x00000000000000C0,0x0000000000000003,
"LIN","data",0.313311875,0.000475,,0x0000000000000099,0x0000000000000004,
"LIN","data",0.313832542,0.000475,,0x0000000000000099,0x0000000000000005,
"LIN","data_or_checksum",0.314353208,0.000475,,0x000000000000003D,0x0000000000000006,0x000000000000003D
"LIN","header_break",0.3292455,0.000726167,,,,
"LIN","header_sync",0.330079,0.000475,,,,
"LIN","header_pid",0.330599917,0.000475,0x0000000000000011,,,
"LIN","data",0.331120875,0.000475,,0x0000000000000000,0x0000000000000000,
"LIN","data",0.331641833,0.000475,,0x0000000000000066,0x0000000000000001,
"LIN","data",0.332162792,0.000475,,0x0000000000000000,0x0000000000000002,
"LIN","data",0.332683708,0.000475,,0x00000000000000F8,0x0000000000000003,
"LIN","data_or_checksum",0.333204708,0.000475,,0x000000000000008F,0x0000000000000004,0x000000000000008F
"LIN","header_break",0.344196625,0.000726167,,,,
"LIN","header_sync",0.345030083,0.000475,,,,
"LIN","header_pid",0.345551042,0.000475,0x0000000000000012,,,
"LIN","data",0.346115625,0.000475,,0x0000000000000002,0x0000000000000000,
"LIN","data",0.346740833,0.000475,,0x0000000000000010,0x0000000000000001,
"LIN","data",0.347367125,0.000475,,0x0000000000000011,0x0000000000000002,
"LIN","data",0.347992333,0.000475,,0x0000000000000011,0x0000000000000003,
"LIN","data",0.348617583,0.000475,,0x00000000000000A4,0x0000000000000004,
"LIN","data",0.349242833,0.000475,,0x0000000000000000,0x0000000000000005,
"LIN","data_or_checksum",0.349868042,0.000475,,0x0000000000000094,0x0000000000000006,0x0000000000000094
"LIN","header_break",0.399260417,0.000726125,,,,
"LIN","header_sync",0.400093875,0.000475,,,,
"LIN","header_pid",0.400614833,0.000475,0x0000000000000001,,,
"LIN","data",0.401135792,0.000475,,0x000000000000005E,0x0000000000000000,
"LIN","data",0.401656708,0.000475,,0x0000000000000001,0x0000000000000001,
"LIN","data_or_checksum",0.402177667,0.000475,,0x00000000000000DE,0x0000000000000002,0x00000000000000DE
"LIN","header_break",0.409262542,0.000726167,,,,
"LIN","header_sync",0.410096,0.000475,,,,
"LIN","header_pid",0.410616958,0.000475,0x0000000000000010,,,
"LIN","data",0.411250375,0.000475,,0x000000000000005E,0x0000000000000000,
"LIN","data",0.411770917,0.000475,,0x0000000000000021,0x0000000000000001,
"LIN","data",0.412291458,0.000475,,0x00000000000000FE,0x0000000000000002,
"LIN","data",0.412812125,0.000475,,0x00000000000000C0,0x0000000000000003,
"LIN","data",0.413332667,0.000475,,0x0000000000000099,0x0000000000000004,
"LIN","data",0.41385325,0.000475,,0x0000000000000099,0x0000000000000005,
"LIN","data_or_checksum",0.414373875,0.000475,,0x000000000000003D,0x0000000000000006,0x000000000000003D
"LIN","header_break",0.429266792,0.000726125,,,,
"LIN","header_sync",0.43010025,0.000475,,,,
"LIN","header_pid",0.430621208,0.000475,0x0000000000000011,,,
"LIN","data",0.431142125,0.000475,,0x0000000000000000,0x0000000000000000,
"LIN","data",0.431663083,0.000475,,0x000000000000006B,0x0000000000000001,
"LIN","data",0.432184042,0.000475,,0x0000000000000000,0x0000000000000002,
"LIN","data",0.432704958,0.000475,,0x00000000000000F8,0x0000000000000003,
"LIN","data_or_checksum",0.433225917,0.000475,,0x000000000000008A,0x0000000000000004,0x000000000000008A
"LIN","header_break",0.439268917,0.000726083,,,,
"LIN","header_sync",0.440102375,0.000475,,,,
"LIN","header_pid",0.440623333,0.000475,0x0000000000000004,,,
"LIN","data",0.441144292,0.000475,,0x0000000000000043,0x0000000000000000,
"LIN","data",0.441665208,0.000475,,0x00000000000000FE,0x0000000000000001,
"LIN","data_or_checksum",0.442186167,0.000475,,0x00000000000000F8,0x0000000000000002,0x00000000000000F8
"LIN","header_break",0.444269958,0.000726167,,,,
"LIN","header_sync",0.445103458,0.000475,,,,
"LIN","header_pid",0.445624375,0.000475,0x0000000000000012,,,
"LIN","data",0.446171667,0.000475,,0x0000000000000002,0x0000000000000000,
"LIN","data",0.446796875,0.000475,,0x0000000000000010,0x0000000000000001,
"LIN","data",0.447422083,0.000475,,0x0000000000000011,0x0000000000000002,
"LIN","data",0.448048375,0.000475,,0x0000000000000011,0x0000000000000003,
"LIN","data",0.448673625,0.000475,,0x00000000000000A4,0x0000000000000004,
"LIN","data",0.449298875,0.000475,,0x0000000000000000,0x0000000000000005,
"LIN","data_or_checksum",0.449924125,0.000475,,0x0000000000000094,0x0000000000000006,0x0000000000000094
"LIN","header_break",0.459273167,0.000726125,,,,
"LIN","header_sync",0.460106625,0.000475,,,,
"LIN","header_pid",0.460627583,0.000475,0x0000000000000025,,,
"LIN","data",0.461241167,0.000475,,0x000000000000005E,0x0000000000000000,
"LIN","data",0.461870667,0.000475,,0x0000000000000055,0x0000000000000001,
"LIN","data",0.462447667,0.000475,,0x00000000000000F0,0x0000000000000002,
"LIN","data",0.463077125,0.000475,,0x0000000000000011,0x0000000000000003,
"LIN","data",0.463654042,0.000475,,0x0000000000000011,0x0000000000000004,
"LIN","data",0.464231042,0.000475,,0x0000000000000011,0x0000000000000005,
"LIN","data",0.464860417,0.000475,,0x00000000000000D1,0x0000000000000006,
"LIN","data",0.465437458,0.000475,,0x00000000000000FF,0x0000000000000007,
"LIN","checksum",0.466014417,0.000475,,,,0x0000000000000031
"LIN","header_break",0.499281667,0.000775,,,,
"LIN","header_sync",0.500115125,0.000475,,,,
"LIN","header_pid",0.500636042,0.000475,0x0000000000000001,,,
"LIN","data",0.501157042,0.000475,,0x000000000000005E,0x0000000000000000,
"LIN","data",0.501677958,0.000475,,0x0000000000000001,0x0000000000000001,
"LIN","data_or_checksum",0.502198917,0.000475,,0x00000000000000DE,0x0000000000000002,0x00000000000000DE
"LIN","header_break",0.509283792,0.000726125,,,,
"LIN","header_sync",0.51011725,0.000475,,,,
"LIN","header_pid",0.510638208,0.000475,0x0000000000000010,,,
"LIN","data",0.51127175,0.000475,,0x000000000000005E,0x0000000000000000,
"LIN","data",0.511792292,0.000475,,0x0000000000000021,0x0000000000000001,
"LIN","data",0.512312875,0.000475,,0x00000000000000FE,0x0000000000000002,
"LIN","data",0.512833542,0.000475,,0x00000000000000C0,0x0000000000000003,
"LIN","data",0.513354167,0.000475,,0x0000000000000099,0x0000000000000004,
"LIN","data",0.51387475,0.000475,,0x0000000000000099,0x0000000000000005,
"LIN","data_or_checksum",0.514395375,0.000475,,0x000000000000003D,0x0000000000000006,0x000000000000003D
"LIN","header_break",0.529288042,0.000726167,,,,
"LIN","header_sync",0.5301215,0.000475,,,,
"LIN","header_pid",0.530642458,0.000475,0x0000000000000011,,,
"LIN","data",0.531163375,0.000475,,0x0000000000000000,0x0000000000000000,
"LIN","data",0.531684333,0.000475,,0x0000000000000069,0x0000000000000001,
"LIN","data",0.532205333,0.000475,,0x0000000000000000,0x0000000000000002,
"LIN","data",0.532726208,0.000475,,0x00000000000000F8,0x0000000000000003,
"LIN","data_or_checksum",0.533247167,0.000475,,0x000000000000008C,0x0000000000000004,0x000000000000008C
"LIN","header_break",0.544239125,0.000726167,,,,
"LIN","header_sync",0.545072583,0.000475,,,,
"LIN","header_pid",0.545593542,0.000475,0x0000000000000012,,,
"LIN","data",0.546123167,0.000475,,0x0000000000000003,0x0000000000000000,
"LIN","data",0.546748333,0.000475,,0x0000000000000010,0x0000000000000001,
"LIN","data",0.547374625,0.000475,,0x0000000000000011,0x0000000000000002,
"LIN","data",0.547999875,0.000475,,0x0000000000000011,0x0000000000000003,
"LIN","data",0.548625083,0.000475,,0x00000000000000A4,0x0000000000000004,
"LIN","data",0.549250333,0.000475,,0x0000000000000000,0x0000000000000005,
"LIN","data_or_checksum",0.549875583,0.000475,,0x0000000000000093,0x0000000000000006,0x0000000000000093
"LIN","header_break",0.599302917,0.000726125,,,,
"LIN","header_sync",0.600136375,0.000475,,,,
"LIN","header_pid",0.600657333,0.000475,0x0000000000000001,,,
"LIN","data",0.601178292,0.000475,,0x000000000000005E,0x0000000000000000,
"LIN","data",0.601699208,0.000475,,0x0000000000000001,0x0000000000000001,
"LIN","data_or_checksum",0.602220167,0.000475,,0x00000000000000DE,0x0000000000000002,0x00000000000000DE
"LIN","header_break",0.609305042,0.000726125,,,,
"LIN","header_sync",0.6101385,0.000475,,,,
"LIN","header_pid",0.610659458,0.000475,0x0000000000000010,,,
"LIN","data",0.611292708,0.000475,,0x000000000000005E,0x0000000000000000,
"LIN","data",0.611813208,0.000475,,0x0000000000000021,0x0000000000000001,
"LIN","data",0.61233375,0.000475,,0x00000000000000FE,0x0000000000000002,
"LIN","data",0.612854208,0.000475,,0x00000000000000C0,0x0000000000000003,
"LIN","data",0.61337475,0.000475,,0x0000000000000099,0x0000000000000004,
"LIN","data",0.613895292,0.000475,,0x0000000000000099,0x0000000000000005,
"LIN","data_or_checksum",0.61441575,0.000475,,0x000000000000003D,0x0000000000000006,0x000000000000003D
"LIN","header_break",0.629309292,0.000726125,,,,
"LIN","header_sync",0.63014275,0.000475,,,,
"LIN","header_pid",0.630663708,0.000475,0x0000000000000011,,,
"LIN","data",0.631184625,0.000475,,0x0000000000000000,0x0000000000000000,
"LIN","data",0.631705583,0.000475,,0x000000000000006E,0x0000000000000001,
"LIN","data",0.6322265,0.000475,,0x0000000000000000,0x0000000000000002,
"LIN","data",0.6327475,0.000475,,0x00000000000000F8,0x0000000000000003,
"LIN","data_or_checksum",0.633268417,0.000475,,0x0000000000000087,0x0000000000000004,0x0000000000000087
"LIN","header_break",0.639311375,0.000726167,,,,
"LIN","header_sync",0.640144875,0.000475,,,,
"LIN","header_pid",0.640665833,0.000475,0x0000000000000004,,,
"LIN","data",0.641186792,0.000475,,0x0000000000000043,0x0000000000000000,
"LIN","data",0.641707708,0.000475,,0x00000000000000FE,0x0000000000000001,
"LIN","data_or_checksum",0.642228667,0.000475,,0x00000000000000F8,0x0000000000000002,0x00000000000000F8
"LIN","header_break",0.644312458,0.000726167,,,,
"LIN","header_sync",0.645145958,0.000475,,,,
"LIN","header_pid",0.645666875,0.000475,0x0000000000000012,,,
"LIN","data",0.646231458,0.000475,,0x0000000000000003,0x0000000000000000,
"LIN","data",0.646856625,0.000475,,0x0000000000000010,0x0000000000000001,
"LIN","data",0.647481875,0.000475,,0x0000000000000011,0x0000000000000002,
"LIN","data",0.648107125,0.000475,,0x0000000000000011,0x0000000000000003,
